
T0C4C 000:722 SEGGER J-Link V4.15n (beta) Log File (0001ms, 0720ms total)
T0C4C 000:722 DLL Compiled: Jun 18 2010 19:55:09 (0001ms, 0720ms total)
T0C4C 000:722 Logging started @ 2015-12-11 14:18 (0001ms, 0720ms total)
T0C4C 000:723 JLINK_SetWarnOutHandler(...) (0000ms, 0721ms total)
T0C4C 000:723 JLINK_OpenEx(...)
Firmware: J-Link ARM V8 compiled May 20 2010 17:07:46
Hardware: V8.00
S/N: 304427281
Feature(s): RDI,FlashDL,FlashBP,JFlash,GDBFULL  returns O.K. (0115ms, 0721ms total)
T0C4C 000:838 JLINK_SetErrorOutHandler(...) (0000ms, 0836ms total)
T0C4C 000:840 JLINK_ExecCommand("ProjectFile = "E:\报价及转接过来的（9-28日起）\S90745-DL052FH-蓝魔R4\齐套资料\产线测试程序\新板子测试程序\TES-S90745-FOG-V02\JLinkSettings.ini"", ...)  returns 0x00 (0002ms, 0836ms total)
T0C4C 000:860 JLINK_ExecCommand("DisableConnectionTimeout", ...)  returns 0x00 (0000ms, 0838ms total)
T0C4C 000:860 JLINK_TIF_Select(JLINKARM_TIF_SWD)  returns 0x00 (0004ms, 0838ms total)
T0C4C 000:864 JLINK_SetSpeed(10000) (0003ms, 0842ms total)
T0C4C 000:868 JLINK_GetHardwareVersion()  returns 0x13880 (0000ms, 0845ms total)
T0C4C 000:868 JLINK_GetDLLVersion()  returns 41514 (0000ms, 0845ms total)
T0C4C 000:868 JLINK_GetFirmwareString(...) (0000ms, 0845ms total)
T0C4C 000:892 JLINK_GetDLLVersion()  returns 41514 (0000ms, 0845ms total)
T0C4C 000:892 JLINK_GetCompileDateTime() (0000ms, 0845ms total)
T0C4C 000:897 JLINK_GetFirmwareString(...) (0000ms, 0845ms total)
T0C4C 000:902 JLINK_GetHardwareVersion()  returns 0x13880 (0000ms, 0845ms total)
T0C4C 000:920 JLINK_Reset() >0x108 TIF>Found SWD-DP with ID 0x1BA01477 >0x33 TIF> >0x33 TIF> >0x35 TIF> >0x33 TIF> >0x35 TIF> >0x33 TIF> >0x33 TIF> >0x9B TIF> >0x9B TIF> >0x1D7 TIF> >0x13A TIF> >0x13A TIF>TPIU fitted. >0x13A TIF>ETM fitted. >0x13A TIF>  FPUnit: 6 code (BP) slots and 2 literal slots >0x13A TIF> >0x13A TIF> (0080ms, 0845ms total)
T0C4C 001:002 JLINK_JTAG_StoreRaw(..., 0x108 Bits)  returns 0x00 (0000ms, 0925ms total)
T0C4C 001:002 JLINK_JTAG_GetU32(BitPos = 227) >0x108 TIF>  returns 0x1BA01477 (0002ms, 0925ms total)
T0C4C 001:004 JLINK_GetDebugInfo(0x100) -- Value=0xE00FF003  returns 0x00 (0001ms, 0927ms total)
T0C4C 001:008 JLINK_ReadMem (0xE00FF000, 0x0018 Bytes, ...) -- CPU_ReadMem(24 bytes @ 0xE00FF000) -- Data:  03 F0 F0 FF 03 20 F0 FF 03 30 F0 FF 03 10 F0 FF ...  returns 0x00 (0001ms, 0928ms total)
T0C4C 001:009 JLINK_ReadMemU32(0xE000ED00, 0x0001 Items, ...) -- CPU_ReadMem(4 bytes @ 0xE000ED00) -- Data:  31 C2 1F 41  returns 0x01 (0003ms, 0929ms total)
T0C4C 001:015 JLINK_Halt()  returns 0x00 (0000ms, 0932ms total)
T0C4C 001:015 JLINK_IsHalted()  returns TRUE (0000ms, 0932ms total)
T0C4C 001:015 JLINK_ReadMemU32(0xE000EDF0, 0x0001 Items, ...) -- CPU_ReadMem(4 bytes @ 0xE000EDF0) -- Data:  03 00 03 00  returns 0x01 (0001ms, 0932ms total)
T0C4C 001:016 JLINK_WriteU32(0xE000EDF0, 0xA05F0003) -- CPU_WriteMem(4 bytes @ 0xE000EDF0)  returns 0x00 (0003ms, 0933ms total)
T0C4C 001:019 JLINK_WriteU32(0xE000EDFC, 0x01000000) -- CPU_WriteMem(4 bytes @ 0xE000EDFC)  returns 0x00 (0002ms, 0936ms total)
T0C4C 001:021 JLINK_ReadMemU32(0xE0002000, 0x0001 Items, ...) -- CPU_ReadMem(4 bytes @ 0xE0002000) -- Data:  60 02 00 00  returns 0x01 (0001ms, 0938ms total)
T0C4C 001:022 JLINK_ReadMemU32(0xE0001000, 0x0001 Items, ...) -- CPU_ReadMem(4 bytes @ 0xE0001000) -- Data:  01 00 00 40  returns 0x01 (0002ms, 0939ms total)
T0C4C 001:037 JLINK_ExecCommand("Device = STM32F103VC", ...)
                JLINK_ExecCommand("map ram 0x20000000 - 0x2000BFFF", ...)  returns 0x00 (0000ms, 0000ms total)
                JLINK_AddMirrorAreaEx(Addr = 0x00000000, Size = 0x00000000) (0000ms, 0000ms total)
                returns 0x00 (0001ms, 0941ms total)
T0C4C 001:038 JLINK_GetHWStatus(...)  returns 0x00 (0002ms, 0942ms total)
T0C4C 001:049 JLINK_GetNumBPUnits(Type = 0xFFFFFF00) >0x108 TIF>Found SWD-DP with ID 0x1BA01477 >0x33 TIF> >0x33 TIF> >0x35 TIF> >0x33 TIF> >0x35 TIF> >0x33 TIF> >0x33 TIF> >0x9B TIF> >0x9B TIF> >0x1D7 TIF> >0x13A TIF> >0x13A TIF>TPIU fitted. >0x13A TIF>ETM fitted. >0x13A TIF>  FPUnit: 6 code (BP) slots and 2 literal slots >0x13A TIF> >0x13A TIF>  returns 0x06 (0060ms, 0944ms total)
T0C4C 001:109 JLINK_GetNumBPUnits(Type = 0xF0)  returns 0x800 (0000ms, 1004ms total)
T0C4C 001:109 JLINK_GetNumWPUnits()  returns 0x04 (0000ms, 1004ms total)
T0C4C 001:119 JLINK_GetSpeed()  returns 0xFA0 (0000ms, 1004ms total)
T0C4C 001:127 JLINK_ReadMemU32(0xE000E004, 0x0001 Items, ...) -- CPU_ReadMem(4 bytes @ 0xE000E004) -- Data:  01 00 00 00  returns 0x01 (0001ms, 1004ms total)
T0C4C 001:128 JLINK_WriteMem(0xE0001000, 0x001C Bytes, ...) -- Data:  01 00 00 00 00 00 00 00 00 00 00 00 00 00 00 00 ... -- CPU_WriteMem(28 bytes @ 0xE0001000)  returns 0x1C (0003ms, 1005ms total)
T0C4C 001:131 JLINK_ReadMem (0xE0001000, 0x001C Bytes, ...) -- CPU_ReadMem(28 bytes @ 0xE0001000) -- Data:  01 00 00 40 00 00 00 00 00 00 00 00 00 00 00 00 ...  returns 0x00 (0002ms, 1008ms total)
T0C4C 001:133 JLINK_Halt()  returns 0x00 (0000ms, 1010ms total)
T0C4C 001:133 JLINK_IsHalted()  returns TRUE (0000ms, 1010ms total)
T0C4C 001:136 JLINK_WriteMem(0x20000000, 0x0164 Bytes, ...) -- Data:  00 BE 0A E0 0D 78 2D 06 68 40 08 24 40 00 00 D3 ... -- CPU_WriteMem(356 bytes @ 0x20000000)  returns 0x164 (0003ms, 1010ms total)
T0C4C 001:139 JLINK_WriteReg(R0, 0x08000000)  returns 0x00 (0000ms, 1013ms total)
T0C4C 001:139 JLINK_WriteReg(R1, 0x007A1200)  returns 0x00 (0000ms, 1013ms total)
T0C4C 001:139 JLINK_WriteReg(R2, 0x00000001)  returns 0x00 (0000ms, 1013ms total)
T0C4C 001:139 JLINK_WriteReg(R3, 0x00000000)  returns 0x00 (0000ms, 1013ms total)
T0C4C 001:139 JLINK_WriteReg(R4, 0x00000000)  returns 0x00 (0000ms, 1013ms total)
T0C4C 001:139 JLINK_WriteReg(R5, 0x00000000)  returns 0x00 (0000ms, 1013ms total)
T0C4C 001:139 JLINK_WriteReg(R6, 0x00000000)  returns 0x00 (0000ms, 1013ms total)
T0C4C 001:139 JLINK_WriteReg(R7, 0x00000000)  returns 0x00 (0000ms, 1013ms total)
T0C4C 001:139 JLINK_WriteReg(R8, 0x00000000)  returns 0x00 (0000ms, 1013ms total)
T0C4C 001:139 JLINK_WriteReg(R9, 0x20000160)  returns 0x00 (0000ms, 1013ms total)
T0C4C 001:139 JLINK_WriteReg(R10, 0x00000000)  returns 0x00 (0000ms, 1013ms total)
T0C4C 001:139 JLINK_WriteReg(R11, 0x00000000)  returns 0x00 (0000ms, 1013ms total)
T0C4C 001:139 JLINK_WriteReg(R12, 0x00000000)  returns 0x00 (0000ms, 1013ms total)
T0C4C 001:139 JLINK_WriteReg(R13, 0x20000800)  returns 0x00 (0000ms, 1013ms total)
T0C4C 001:139 JLINK_WriteReg(R14, 0x20000001)  returns 0x00 (0000ms, 1013ms total)
T0C4C 001:139 JLINK_WriteReg(R15, 0x20000038)  returns 0x00 (0000ms, 1013ms total)
T0C4C 001:139 JLINK_WriteReg(XPSR, 0x01000000)  returns 0x00 (0001ms, 1013ms total)
T0C4C 001:140 JLINK_WriteReg(MSP, 0x20000800)  returns 0x00 (0000ms, 1014ms total)
T0C4C 001:140 JLINK_WriteReg(PSP, 0x20000800)  returns 0x00 (0000ms, 1014ms total)
T0C4C 001:140 JLINK_WriteReg(CFBP, 0x00000000)  returns 0x00 (0000ms, 1014ms total)
T0C4C 001:140 JLINK_SetBPEx(Addr = 0x20000000, Type = 0xFFFFFFF2) -- CPU_ReadMem(2 bytes @ 0x20000000)  returns 0x00000001 (0001ms, 1014ms total)
T0C4C 001:141 JLINK_Go() -- CPU_WriteMem(2 bytes @ 0x20000000) -- CPU_WriteMem(4 bytes @ 0xE0002008) -- CPU_WriteMem(4 bytes @ 0xE000200C) -- CPU_WriteMem(4 bytes @ 0xE0002010) -- CPU_WriteMem(4 bytes @ 0xE0002014) -- CPU_WriteMem(4 bytes @ 0xE0002018) -- CPU_WriteMem(4 bytes @ 0xE000201C) (0011ms, 1015ms total)
T0C4C 001:152 JLINK_IsHalted() -- CPU_ReadMem(2 bytes @ 0x20000000)  returns TRUE (0010ms, 1026ms total)
T0C4C 001:162 JLINK_ReadReg(R15)  returns 0x20000000 (0000ms, 1026ms total)
T0C4C 001:162 JLINK_ClrBPEx(BPHandle = 0x00000001)  returns 0x00 (0000ms, 1026ms total)
T0C4C 001:162 JLINK_ReadReg(R0)  returns 0x00000000 (0000ms, 1026ms total)
T0C4C 001:162 JLINK_WriteReg(R0, 0x08000000)  returns 0x00 (0000ms, 1026ms total)
T0C4C 001:162 JLINK_WriteReg(R1, 0x007A1200)  returns 0x00 (0000ms, 1026ms total)
T0C4C 001:162 JLINK_WriteReg(R2, 0x00000001)  returns 0x00 (0000ms, 1026ms total)
T0C4C 001:162 JLINK_WriteReg(R3, 0x00000000)  returns 0x00 (0000ms, 1026ms total)
T0C4C 001:162 JLINK_WriteReg(R4, 0x00000000)  returns 0x00 (0000ms, 1026ms total)
T0C4C 001:162 JLINK_WriteReg(R5, 0x00000000)  returns 0x00 (0000ms, 1026ms total)
T0C4C 001:162 JLINK_WriteReg(R6, 0x00000000)  returns 0x00 (0000ms, 1026ms total)
T0C4C 001:162 JLINK_WriteReg(R7, 0x00000000)  returns 0x00 (0000ms, 1026ms total)
T0C4C 001:162 JLINK_WriteReg(R8, 0x00000000)  returns 0x00 (0000ms, 1026ms total)
T0C4C 001:162 JLINK_WriteReg(R9, 0x20000160)  returns 0x00 (0000ms, 1026ms total)
T0C4C 001:162 JLINK_WriteReg(R10, 0x00000000)  returns 0x00 (0000ms, 1026ms total)
T0C4C 001:162 JLINK_WriteReg(R11, 0x00000000)  returns 0x00 (0000ms, 1026ms total)
T0C4C 001:162 JLINK_WriteReg(R12, 0x00000000)  returns 0x00 (0000ms, 1026ms total)
T0C4C 001:162 JLINK_WriteReg(R13, 0x20000800)  returns 0x00 (0000ms, 1026ms total)
T0C4C 001:162 JLINK_WriteReg(R14, 0x20000001)  returns 0x00 (0001ms, 1026ms total)
T0C4C 001:163 JLINK_WriteReg(R15, 0x2000007C)  returns 0x00 (0000ms, 1027ms total)
T0C4C 001:163 JLINK_WriteReg(XPSR, 0x01000000)  returns 0x00 (0000ms, 1027ms total)
T0C4C 001:163 JLINK_WriteReg(MSP, 0x20000800)  returns 0x00 (0000ms, 1027ms total)
T0C4C 001:163 JLINK_WriteReg(PSP, 0x20000800)  returns 0x00 (0000ms, 1027ms total)
T0C4C 001:163 JLINK_WriteReg(CFBP, 0x00000000)  returns 0x00 (0000ms, 1027ms total)
T0C4C 001:163 JLINK_SetBPEx(Addr = 0x20000000, Type = 0xFFFFFFF2)  returns 0x00000002 (0000ms, 1027ms total)
T0C4C 001:163 JLINK_Go() -- CPU_WriteMem(4 bytes @ 0xE0002008) -- CPU_WriteMem(4 bytes @ 0xE000200C) -- CPU_WriteMem(4 bytes @ 0xE0002010) -- CPU_WriteMem(4 bytes @ 0xE0002014) -- CPU_WriteMem(4 bytes @ 0xE0002018) -- CPU_WriteMem(4 bytes @ 0xE000201C) (0013ms, 1027ms total)
T0C4C 001:176 JLINK_IsHalted()  returns FALSE (0002ms, 1040ms total)
T0C4C 001:229 JLINK_IsHalted() -- CPU_ReadMem(2 bytes @ 0x20000000)  returns TRUE (0007ms, 1040ms total)
T0C4C 001:236 JLINK_ReadReg(R15)  returns 0x20000000 (0000ms, 1040ms total)
T0C4C 001:236 JLINK_ClrBPEx(BPHandle = 0x00000002)  returns 0x00 (0000ms, 1040ms total)
T0C4C 001:236 JLINK_ReadReg(R0)  returns 0x00000000 (0001ms, 1040ms total)
T0C4C 001:290 JLINK_WriteReg(R0, 0x00000001)  returns 0x00 (0000ms, 1041ms total)
T0C4C 001:290 JLINK_WriteReg(R1, 0x007A1200)  returns 0x00 (0000ms, 1041ms total)
T0C4C 001:290 JLINK_WriteReg(R2, 0x00000001)  returns 0x00 (0000ms, 1041ms total)
T0C4C 001:290 JLINK_WriteReg(R3, 0x00000000)  returns 0x00 (0000ms, 1041ms total)
T0C4C 001:290 JLINK_WriteReg(R4, 0x00000000)  returns 0x00 (0000ms, 1041ms total)
T0C4C 001:290 JLINK_WriteReg(R5, 0x00000000)  returns 0x00 (0000ms, 1041ms total)
T0C4C 001:290 JLINK_WriteReg(R6, 0x00000000)  returns 0x00 (0000ms, 1041ms total)
T0C4C 001:290 JLINK_WriteReg(R7, 0x00000000)  returns 0x00 (0000ms, 1041ms total)
T0C4C 001:290 JLINK_WriteReg(R8, 0x00000000)  returns 0x00 (0000ms, 1041ms total)
T0C4C 001:290 JLINK_WriteReg(R9, 0x20000160)  returns 0x00 (0000ms, 1041ms total)
T0C4C 001:290 JLINK_WriteReg(R10, 0x00000000)  returns 0x00 (0000ms, 1041ms total)
T0C4C 001:290 JLINK_WriteReg(R11, 0x00000000)  returns 0x00 (0000ms, 1041ms total)
T0C4C 001:290 JLINK_WriteReg(R12, 0x00000000)  returns 0x00 (0000ms, 1041ms total)
T0C4C 001:290 JLINK_WriteReg(R13, 0x20000800)  returns 0x00 (0000ms, 1041ms total)
T0C4C 001:290 JLINK_WriteReg(R14, 0x20000001)  returns 0x00 (0000ms, 1041ms total)
T0C4C 001:290 JLINK_WriteReg(R15, 0x2000006A)  returns 0x00 (0000ms, 1041ms total)
T0C4C 001:290 JLINK_WriteReg(XPSR, 0x01000000)  returns 0x00 (0000ms, 1041ms total)
T0C4C 001:290 JLINK_WriteReg(MSP, 0x20000800)  returns 0x00 (0000ms, 1041ms total)
T0C4C 001:290 JLINK_WriteReg(PSP, 0x20000800)  returns 0x00 (0000ms, 1041ms total)
T0C4C 001:290 JLINK_WriteReg(CFBP, 0x00000000)  returns 0x00 (0000ms, 1041ms total)
T0C4C 001:290 JLINK_SetBPEx(Addr = 0x20000000, Type = 0xFFFFFFF2)  returns 0x00000003 (0000ms, 1041ms total)
T0C4C 001:290 JLINK_Go() -- CPU_WriteMem(4 bytes @ 0xE0002008) -- CPU_WriteMem(4 bytes @ 0xE000200C) -- CPU_WriteMem(4 bytes @ 0xE0002010) -- CPU_WriteMem(4 bytes @ 0xE0002014) -- CPU_WriteMem(4 bytes @ 0xE0002018) -- CPU_WriteMem(4 bytes @ 0xE000201C) (0011ms, 1041ms total)
T0C4C 001:301 JLINK_IsHalted() -- CPU_ReadMem(2 bytes @ 0x20000000)  returns TRUE (0007ms, 1052ms total)
T0C4C 001:309 JLINK_ReadReg(R15)  returns 0x20000000 (0000ms, 1052ms total)
T0C4C 001:309 JLINK_ClrBPEx(BPHandle = 0x00000003)  returns 0x00 (0000ms, 1052ms total)
T0C4C 001:309 JLINK_ReadReg(R0)  returns 0x00000000 (0000ms, 1052ms total)
T0C4C 001:316 JLINK_WriteMem(0x20000000, 0x0164 Bytes, ...) -- Data:  00 BE 0A E0 0D 78 2D 06 68 40 08 24 40 00 00 D3 ... -- CPU_WriteMem(356 bytes @ 0x20000000)  returns 0x164 (0003ms, 1052ms total)
T0C4C 001:319 JLINK_WriteReg(R0, 0x08000000)  returns 0x00 (0000ms, 1055ms total)
T0C4C 001:319 JLINK_WriteReg(R1, 0x007A1200)  returns 0x00 (0000ms, 1055ms total)
T0C4C 001:319 JLINK_WriteReg(R2, 0x00000002)  returns 0x00 (0000ms, 1055ms total)
T0C4C 001:319 JLINK_WriteReg(R3, 0x00000000)  returns 0x00 (0001ms, 1055ms total)
T0C4C 001:320 JLINK_WriteReg(R4, 0x00000000)  returns 0x00 (0000ms, 1056ms total)
T0C4C 001:320 JLINK_WriteReg(R5, 0x00000000)  returns 0x00 (0000ms, 1056ms total)
T0C4C 001:320 JLINK_WriteReg(R6, 0x00000000)  returns 0x00 (0000ms, 1056ms total)
T0C4C 001:320 JLINK_WriteReg(R7, 0x00000000)  returns 0x00 (0000ms, 1056ms total)
T0C4C 001:320 JLINK_WriteReg(R8, 0x00000000)  returns 0x00 (0000ms, 1056ms total)
T0C4C 001:320 JLINK_WriteReg(R9, 0x20000160)  returns 0x00 (0000ms, 1056ms total)
T0C4C 001:320 JLINK_WriteReg(R10, 0x00000000)  returns 0x00 (0000ms, 1056ms total)
T0C4C 001:320 JLINK_WriteReg(R11, 0x00000000)  returns 0x00 (0000ms, 1056ms total)
T0C4C 001:320 JLINK_WriteReg(R12, 0x00000000)  returns 0x00 (0000ms, 1056ms total)
T0C4C 001:320 JLINK_WriteReg(R13, 0x20000800)  returns 0x00 (0000ms, 1056ms total)
T0C4C 001:320 JLINK_WriteReg(R14, 0x20000001)  returns 0x00 (0000ms, 1056ms total)
T0C4C 001:320 JLINK_WriteReg(R15, 0x20000038)  returns 0x00 (0000ms, 1056ms total)
T0C4C 001:320 JLINK_WriteReg(XPSR, 0x01000000)  returns 0x00 (0000ms, 1056ms total)
T0C4C 001:320 JLINK_WriteReg(MSP, 0x20000800)  returns 0x00 (0000ms, 1056ms total)
T0C4C 001:320 JLINK_WriteReg(PSP, 0x20000800)  returns 0x00 (0000ms, 1056ms total)
T0C4C 001:320 JLINK_WriteReg(CFBP, 0x00000000)  returns 0x00 (0000ms, 1056ms total)
T0C4C 001:320 JLINK_SetBPEx(Addr = 0x20000000, Type = 0xFFFFFFF2) -- CPU_ReadMem(2 bytes @ 0x20000000)  returns 0x00000004 (0001ms, 1056ms total)
T0C4C 001:321 JLINK_Go() -- CPU_WriteMem(2 bytes @ 0x20000000) -- CPU_WriteMem(4 bytes @ 0xE0002008) -- CPU_WriteMem(4 bytes @ 0xE000200C) -- CPU_WriteMem(4 bytes @ 0xE0002010) -- CPU_WriteMem(4 bytes @ 0xE0002014) -- CPU_WriteMem(4 bytes @ 0xE0002018) -- CPU_WriteMem(4 bytes @ 0xE000201C) (0016ms, 1057ms total)
T0C4C 001:337 JLINK_IsHalted() -- CPU_ReadMem(2 bytes @ 0x20000000)  returns TRUE (0006ms, 1073ms total)
T0C4C 001:343 JLINK_ReadReg(R15)  returns 0x20000000 (0000ms, 1073ms total)
T0C4C 001:343 JLINK_ClrBPEx(BPHandle = 0x00000004)  returns 0x00 (0000ms, 1073ms total)
T0C4C 001:343 JLINK_ReadReg(R0)  returns 0x00000000 (0000ms, 1073ms total)
T0C4C 001:344 JLINK_WriteMem(0x20000164, 0x0400 Bytes, ...) -- Data:  00 04 00 20 47 01 00 08 55 0D 00 08 57 0D 00 08 ... -- CPU_WriteMem(1024 bytes @ 0x20000164)  returns 0x400 (0007ms, 1073ms total)
T0C4C 001:351 JLINK_WriteReg(R0, 0x08000000)  returns 0x00 (0000ms, 1080ms total)
T0C4C 001:351 JLINK_WriteReg(R1, 0x00000400)  returns 0x00 (0000ms, 1080ms total)
T0C4C 001:351 JLINK_WriteReg(R2, 0x20000164)  returns 0x00 (0000ms, 1080ms total)
T0C4C 001:351 JLINK_WriteReg(R3, 0x00000000)  returns 0x00 (0000ms, 1080ms total)
T0C4C 001:351 JLINK_WriteReg(R4, 0x00000000)  returns 0x00 (0000ms, 1080ms total)
T0C4C 001:351 JLINK_WriteReg(R5, 0x00000000)  returns 0x00 (0000ms, 1080ms total)
T0C4C 001:351 JLINK_WriteReg(R6, 0x00000000)  returns 0x00 (0000ms, 1080ms total)
T0C4C 001:351 JLINK_WriteReg(R7, 0x00000000)  returns 0x00 (0000ms, 1080ms total)
T0C4C 001:351 JLINK_WriteReg(R8, 0x00000000)  returns 0x00 (0000ms, 1080ms total)
T0C4C 001:351 JLINK_WriteReg(R9, 0x20000160)  returns 0x00 (0000ms, 1080ms total)
T0C4C 001:352 JLINK_WriteReg(R10, 0x00000000)  returns 0x00 (0000ms, 1081ms total)
T0C4C 001:352 JLINK_WriteReg(R11, 0x00000000)  returns 0x00 (0000ms, 1081ms total)
T0C4C 001:352 JLINK_WriteReg(R12, 0x00000000)  returns 0x00 (0000ms, 1081ms total)
T0C4C 001:352 JLINK_WriteReg(R13, 0x20000800)  returns 0x00 (0000ms, 1081ms total)
T0C4C 001:352 JLINK_WriteReg(R14, 0x20000001)  returns 0x00 (0000ms, 1081ms total)
T0C4C 001:352 JLINK_WriteReg(R15, 0x200000F4)  returns 0x00 (0000ms, 1081ms total)
T0C4C 001:352 JLINK_WriteReg(XPSR, 0x01000000)  returns 0x00 (0000ms, 1081ms total)
T0C4C 001:352 JLINK_WriteReg(MSP, 0x20000800)  returns 0x00 (0000ms, 1081ms total)
T0C4C 001:352 JLINK_WriteReg(PSP, 0x20000800)  returns 0x00 (0000ms, 1081ms total)
T0C4C 001:352 JLINK_WriteReg(CFBP, 0x00000000)  returns 0x00 (0000ms, 1081ms total)
T0C4C 001:352 JLINK_SetBPEx(Addr = 0x20000000, Type = 0xFFFFFFF2)  returns 0x00000005 (0000ms, 1081ms total)
T0C4C 001:352 JLINK_Go() -- CPU_WriteMem(4 bytes @ 0xE0002008) -- CPU_WriteMem(4 bytes @ 0xE000200C) -- CPU_WriteMem(4 bytes @ 0xE0002010) -- CPU_WriteMem(4 bytes @ 0xE0002014) -- CPU_WriteMem(4 bytes @ 0xE0002018) -- CPU_WriteMem(4 bytes @ 0xE000201C) (0010ms, 1081ms total)
T0C4C 001:362 JLINK_IsHalted()  returns FALSE (0002ms, 1091ms total)
T0C4C 001:415 JLINK_IsHalted() -- CPU_ReadMem(2 bytes @ 0x20000000)  returns TRUE (0007ms, 1091ms total)
T0C4C 001:422 JLINK_ReadReg(R15)  returns 0x20000000 (0000ms, 1091ms total)
T0C4C 001:422 JLINK_ClrBPEx(BPHandle = 0x00000005)  returns 0x00 (0000ms, 1091ms total)
T0C4C 001:422 JLINK_ReadReg(R0)  returns 0x00000000 (0000ms, 1091ms total)
T0C4C 001:422 JLINK_WriteMem(0x20000164, 0x0400 Bytes, ...) -- Data:  00 68 40 1C 64 49 08 60 07 E0 64 48 00 68 40 1C ... -- CPU_WriteMem(1024 bytes @ 0x20000164)  returns 0x400 (0007ms, 1091ms total)
T0C4C 001:429 JLINK_WriteReg(R0, 0x08000400)  returns 0x00 (0000ms, 1098ms total)
T0C4C 001:429 JLINK_WriteReg(R1, 0x00000400)  returns 0x00 (0000ms, 1098ms total)
T0C4C 001:429 JLINK_WriteReg(R2, 0x20000164)  returns 0x00 (0000ms, 1098ms total)
T0C4C 001:429 JLINK_WriteReg(R3, 0x00000000)  returns 0x00 (0000ms, 1098ms total)
T0C4C 001:429 JLINK_WriteReg(R4, 0x00000000)  returns 0x00 (0000ms, 1098ms total)
T0C4C 001:429 JLINK_WriteReg(R5, 0x00000000)  returns 0x00 (0000ms, 1098ms total)
T0C4C 001:429 JLINK_WriteReg(R6, 0x00000000)  returns 0x00 (0000ms, 1098ms total)
T0C4C 001:429 JLINK_WriteReg(R7, 0x00000000)  returns 0x00 (0000ms, 1098ms total)
T0C4C 001:429 JLINK_WriteReg(R8, 0x00000000)  returns 0x00 (0000ms, 1098ms total)
T0C4C 001:429 JLINK_WriteReg(R9, 0x20000160)  returns 0x00 (0000ms, 1098ms total)
T0C4C 001:429 JLINK_WriteReg(R10, 0x00000000)  returns 0x00 (0000ms, 1098ms total)
T0C4C 001:429 JLINK_WriteReg(R11, 0x00000000)  returns 0x00 (0000ms, 1098ms total)
T0C4C 001:429 JLINK_WriteReg(R12, 0x00000000)  returns 0x00 (0000ms, 1098ms total)
T0C4C 001:429 JLINK_WriteReg(R13, 0x20000800)  returns 0x00 (0000ms, 1098ms total)
T0C4C 001:429 JLINK_WriteReg(R14, 0x20000001)  returns 0x00 (0000ms, 1098ms total)
T0C4C 001:429 JLINK_WriteReg(R15, 0x200000F4)  returns 0x00 (0000ms, 1098ms total)
T0C4C 001:430 JLINK_WriteReg(XPSR, 0x01000000)  returns 0x00 (0000ms, 1098ms total)
T0C4C 001:430 JLINK_WriteReg(MSP, 0x20000800)  returns 0x00 (0000ms, 1098ms total)
T0C4C 001:430 JLINK_WriteReg(PSP, 0x20000800)  returns 0x00 (0000ms, 1098ms total)
T0C4C 001:430 JLINK_WriteReg(CFBP, 0x00000000)  returns 0x00 (0000ms, 1098ms total)
T0C4C 001:430 JLINK_SetBPEx(Addr = 0x20000000, Type = 0xFFFFFFF2)  returns 0x00000006 (0000ms, 1098ms total)
T0C4C 001:430 JLINK_Go() -- CPU_WriteMem(4 bytes @ 0xE0002008) -- CPU_WriteMem(4 bytes @ 0xE000200C) -- CPU_WriteMem(4 bytes @ 0xE0002010) -- CPU_WriteMem(4 bytes @ 0xE0002014) -- CPU_WriteMem(4 bytes @ 0xE0002018) -- CPU_WriteMem(4 bytes @ 0xE000201C) (0010ms, 1098ms total)
T0C4C 001:440 JLINK_IsHalted()  returns FALSE (0001ms, 1108ms total)
T0C4C 001:492 JLINK_IsHalted() -- CPU_ReadMem(2 bytes @ 0x20000000)  returns TRUE (0009ms, 1108ms total)
T0C4C 001:501 JLINK_ReadReg(R15)  returns 0x20000000 (0000ms, 1108ms total)
T0C4C 001:501 JLINK_ClrBPEx(BPHandle = 0x00000006)  returns 0x00 (0000ms, 1108ms total)
T0C4C 001:501 JLINK_ReadReg(R0)  returns 0x00000000 (0000ms, 1108ms total)
T0C4C 001:501 JLINK_WriteMem(0x20000164, 0x0400 Bytes, ...) -- Data:  D0 FD 79 4A 01 21 DA 20 00 F0 CB FD 77 4A 01 21 ... -- CPU_WriteMem(1024 bytes @ 0x20000164)  returns 0x400 (0008ms, 1108ms total)
T0C4C 001:509 JLINK_WriteReg(R0, 0x08000800)  returns 0x00 (0000ms, 1116ms total)
T0C4C 001:509 JLINK_WriteReg(R1, 0x00000400)  returns 0x00 (0000ms, 1116ms total)
T0C4C 001:509 JLINK_WriteReg(R2, 0x20000164)  returns 0x00 (0000ms, 1116ms total)
T0C4C 001:509 JLINK_WriteReg(R3, 0x00000000)  returns 0x00 (0000ms, 1116ms total)
T0C4C 001:509 JLINK_WriteReg(R4, 0x00000000)  returns 0x00 (0000ms, 1116ms total)
T0C4C 001:509 JLINK_WriteReg(R5, 0x00000000)  returns 0x00 (0000ms, 1116ms total)
T0C4C 001:509 JLINK_WriteReg(R6, 0x00000000)  returns 0x00 (0000ms, 1116ms total)
T0C4C 001:509 JLINK_WriteReg(R7, 0x00000000)  returns 0x00 (0000ms, 1116ms total)
T0C4C 001:509 JLINK_WriteReg(R8, 0x00000000)  returns 0x00 (0000ms, 1116ms total)
T0C4C 001:509 JLINK_WriteReg(R9, 0x20000160)  returns 0x00 (0000ms, 1116ms total)
T0C4C 001:509 JLINK_WriteReg(R10, 0x00000000)  returns 0x00 (0000ms, 1116ms total)
T0C4C 001:509 JLINK_WriteReg(R11, 0x00000000)  returns 0x00 (0000ms, 1116ms total)
T0C4C 001:509 JLINK_WriteReg(R12, 0x00000000)  returns 0x00 (0000ms, 1116ms total)
T0C4C 001:509 JLINK_WriteReg(R13, 0x20000800)  returns 0x00 (0000ms, 1116ms total)
T0C4C 001:509 JLINK_WriteReg(R14, 0x20000001)  returns 0x00 (0000ms, 1116ms total)
T0C4C 001:509 JLINK_WriteReg(R15, 0x200000F4)  returns 0x00 (0000ms, 1116ms total)
T0C4C 001:509 JLINK_WriteReg(XPSR, 0x01000000)  returns 0x00 (0000ms, 1116ms total)
T0C4C 001:509 JLINK_WriteReg(MSP, 0x20000800)  returns 0x00 (0000ms, 1116ms total)
T0C4C 001:509 JLINK_WriteReg(PSP, 0x20000800)  returns 0x00 (0000ms, 1116ms total)
T0C4C 001:509 JLINK_WriteReg(CFBP, 0x00000000)  returns 0x00 (0000ms, 1116ms total)
T0C4C 001:509 JLINK_SetBPEx(Addr = 0x20000000, Type = 0xFFFFFFF2)  returns 0x00000007 (0000ms, 1116ms total)
T0C4C 001:509 JLINK_Go() -- CPU_WriteMem(4 bytes @ 0xE0002008) -- CPU_WriteMem(4 bytes @ 0xE000200C) -- CPU_WriteMem(4 bytes @ 0xE0002010) -- CPU_WriteMem(4 bytes @ 0xE0002014) -- CPU_WriteMem(4 bytes @ 0xE0002018) -- CPU_WriteMem(4 bytes @ 0xE000201C) (0012ms, 1116ms total)
T0C4C 001:521 JLINK_IsHalted()  returns FALSE (0001ms, 1128ms total)
T0C4C 001:573 JLINK_IsHalted() -- CPU_ReadMem(2 bytes @ 0x20000000)  returns TRUE (0011ms, 1128ms total)
T0C4C 001:584 JLINK_ReadReg(R15)  returns 0x20000000 (0000ms, 1128ms total)
T0C4C 001:584 JLINK_ClrBPEx(BPHandle = 0x00000007)  returns 0x00 (0000ms, 1128ms total)
T0C4C 001:584 JLINK_ReadReg(R0)  returns 0x00000000 (0000ms, 1128ms total)
T0C4C 001:584 JLINK_WriteMem(0x20000164, 0x0400 Bytes, ...) -- Data:  08 70 0E E0 00 20 4B 49 08 60 FF F7 C0 FD 00 21 ... -- CPU_WriteMem(1024 bytes @ 0x20000164)  returns 0x400 (0008ms, 1128ms total)
T0C4C 001:592 JLINK_WriteReg(R0, 0x08000C00)  returns 0x00 (0000ms, 1136ms total)
T0C4C 001:592 JLINK_WriteReg(R1, 0x00000400)  returns 0x00 (0000ms, 1136ms total)
T0C4C 001:592 JLINK_WriteReg(R2, 0x20000164)  returns 0x00 (0000ms, 1136ms total)
T0C4C 001:592 JLINK_WriteReg(R3, 0x00000000)  returns 0x00 (0000ms, 1136ms total)
T0C4C 001:592 JLINK_WriteReg(R4, 0x00000000)  returns 0x00 (0000ms, 1136ms total)
T0C4C 001:592 JLINK_WriteReg(R5, 0x00000000)  returns 0x00 (0000ms, 1136ms total)
T0C4C 001:592 JLINK_WriteReg(R6, 0x00000000)  returns 0x00 (0000ms, 1136ms total)
T0C4C 001:592 JLINK_WriteReg(R7, 0x00000000)  returns 0x00 (0000ms, 1136ms total)
T0C4C 001:592 JLINK_WriteReg(R8, 0x00000000)  returns 0x00 (0000ms, 1136ms total)
T0C4C 001:592 JLINK_WriteReg(R9, 0x20000160)  returns 0x00 (0000ms, 1136ms total)
T0C4C 001:592 JLINK_WriteReg(R10, 0x00000000)  returns 0x00 (0000ms, 1136ms total)
T0C4C 001:592 JLINK_WriteReg(R11, 0x00000000)  returns 0x00 (0000ms, 1136ms total)
T0C4C 001:592 JLINK_WriteReg(R12, 0x00000000)  returns 0x00 (0000ms, 1136ms total)
T0C4C 001:592 JLINK_WriteReg(R13, 0x20000800)  returns 0x00 (0000ms, 1136ms total)
T0C4C 001:592 JLINK_WriteReg(R14, 0x20000001)  returns 0x00 (0000ms, 1136ms total)
T0C4C 001:592 JLINK_WriteReg(R15, 0x200000F4)  returns 0x00 (0000ms, 1136ms total)
T0C4C 001:592 JLINK_WriteReg(XPSR, 0x01000000)  returns 0x00 (0000ms, 1136ms total)
T0C4C 001:592 JLINK_WriteReg(MSP, 0x20000800)  returns 0x00 (0000ms, 1136ms total)
T0C4C 001:592 JLINK_WriteReg(PSP, 0x20000800)  returns 0x00 (0000ms, 1136ms total)
T0C4C 001:592 JLINK_WriteReg(CFBP, 0x00000000)  returns 0x00 (0000ms, 1136ms total)
T0C4C 001:592 JLINK_SetBPEx(Addr = 0x20000000, Type = 0xFFFFFFF2)  returns 0x00000008 (0000ms, 1136ms total)
T0C4C 001:592 JLINK_Go() -- CPU_WriteMem(4 bytes @ 0xE0002008) -- CPU_WriteMem(4 bytes @ 0xE000200C) -- CPU_WriteMem(4 bytes @ 0xE0002010) -- CPU_WriteMem(4 bytes @ 0xE0002014) -- CPU_WriteMem(4 bytes @ 0xE0002018) -- CPU_WriteMem(4 bytes @ 0xE000201C) (0010ms, 1136ms total)
T0C4C 001:602 JLINK_IsHalted()  returns FALSE (0001ms, 1146ms total)
T0C4C 001:654 JLINK_IsHalted() -- CPU_ReadMem(2 bytes @ 0x20000000)  returns TRUE (0009ms, 1146ms total)
T0C4C 001:663 JLINK_ReadReg(R15)  returns 0x20000000 (0000ms, 1146ms total)
T0C4C 001:663 JLINK_ClrBPEx(BPHandle = 0x00000008)  returns 0x00 (0000ms, 1146ms total)
T0C4C 001:663 JLINK_ReadReg(R0)  returns 0x00000000 (0000ms, 1146ms total)
T0C4C 001:663 JLINK_WriteMem(0x20000164, 0x0400 Bytes, ...) -- Data:  C5 B2 08 2D DB DB 02 20 FF F7 E5 FE 70 BD 2D E9 ... -- CPU_WriteMem(1024 bytes @ 0x20000164)  returns 0x400 (0008ms, 1146ms total)
T0C4C 001:671 JLINK_WriteReg(R0, 0x08001000)  returns 0x00 (0000ms, 1154ms total)
T0C4C 001:671 JLINK_WriteReg(R1, 0x00000400)  returns 0x00 (0000ms, 1154ms total)
T0C4C 001:671 JLINK_WriteReg(R2, 0x20000164)  returns 0x00 (0000ms, 1154ms total)
T0C4C 001:671 JLINK_WriteReg(R3, 0x00000000)  returns 0x00 (0000ms, 1154ms total)
T0C4C 001:671 JLINK_WriteReg(R4, 0x00000000)  returns 0x00 (0000ms, 1154ms total)
T0C4C 001:671 JLINK_WriteReg(R5, 0x00000000)  returns 0x00 (0000ms, 1154ms total)
T0C4C 001:671 JLINK_WriteReg(R6, 0x00000000)  returns 0x00 (0000ms, 1154ms total)
T0C4C 001:671 JLINK_WriteReg(R7, 0x00000000)  returns 0x00 (0000ms, 1154ms total)
T0C4C 001:671 JLINK_WriteReg(R8, 0x00000000)  returns 0x00 (0000ms, 1154ms total)
T0C4C 001:671 JLINK_WriteReg(R9, 0x20000160)  returns 0x00 (0000ms, 1154ms total)
T0C4C 001:671 JLINK_WriteReg(R10, 0x00000000)  returns 0x00 (0000ms, 1154ms total)
T0C4C 001:671 JLINK_WriteReg(R11, 0x00000000)  returns 0x00 (0000ms, 1154ms total)
T0C4C 001:671 JLINK_WriteReg(R12, 0x00000000)  returns 0x00 (0000ms, 1154ms total)
T0C4C 001:671 JLINK_WriteReg(R13, 0x20000800)  returns 0x00 (0000ms, 1154ms total)
T0C4C 001:671 JLINK_WriteReg(R14, 0x20000001)  returns 0x00 (0000ms, 1154ms total)
T0C4C 001:671 JLINK_WriteReg(R15, 0x200000F4)  returns 0x00 (0000ms, 1154ms total)
T0C4C 001:671 JLINK_WriteReg(XPSR, 0x01000000)  returns 0x00 (0000ms, 1154ms total)
T0C4C 001:671 JLINK_WriteReg(MSP, 0x20000800)  returns 0x00 (0000ms, 1154ms total)
T0C4C 001:671 JLINK_WriteReg(PSP, 0x20000800)  returns 0x00 (0000ms, 1154ms total)
T0C4C 001:671 JLINK_WriteReg(CFBP, 0x00000000)  returns 0x00 (0000ms, 1154ms total)
T0C4C 001:671 JLINK_SetBPEx(Addr = 0x20000000, Type = 0xFFFFFFF2)  returns 0x00000009 (0000ms, 1154ms total)
T0C4C 001:671 JLINK_Go() -- CPU_WriteMem(4 bytes @ 0xE0002008) -- CPU_WriteMem(4 bytes @ 0xE000200C) -- CPU_WriteMem(4 bytes @ 0xE0002010) -- CPU_WriteMem(4 bytes @ 0xE0002014) -- CPU_WriteMem(4 bytes @ 0xE0002018) -- CPU_WriteMem(4 bytes @ 0xE000201C) (0011ms, 1154ms total)
T0C4C 001:682 JLINK_IsHalted()  returns FALSE (0002ms, 1165ms total)
T0C4C 001:735 JLINK_IsHalted() -- CPU_ReadMem(2 bytes @ 0x20000000)  returns TRUE (0007ms, 1165ms total)
T0C4C 001:743 JLINK_ReadReg(R15)  returns 0x20000000 (0000ms, 1165ms total)
T0C4C 001:743 JLINK_ClrBPEx(BPHandle = 0x00000009)  returns 0x00 (0000ms, 1165ms total)
T0C4C 001:743 JLINK_ReadReg(R0)  returns 0x00000000 (0000ms, 1165ms total)
T0C4C 001:743 JLINK_WriteMem(0x20000164, 0x0400 Bytes, ...) -- Data:  00 21 C0 20 FF F7 03 FE 01 22 00 21 BC 20 FF F7 ... -- CPU_WriteMem(1024 bytes @ 0x20000164)  returns 0x400 (0008ms, 1165ms total)
T0C4C 001:751 JLINK_WriteReg(R0, 0x08001400)  returns 0x00 (0000ms, 1173ms total)
T0C4C 001:751 JLINK_WriteReg(R1, 0x00000400)  returns 0x00 (0000ms, 1173ms total)
T0C4C 001:751 JLINK_WriteReg(R2, 0x20000164)  returns 0x00 (0000ms, 1173ms total)
T0C4C 001:751 JLINK_WriteReg(R3, 0x00000000)  returns 0x00 (0000ms, 1173ms total)
T0C4C 001:751 JLINK_WriteReg(R4, 0x00000000)  returns 0x00 (0000ms, 1173ms total)
T0C4C 001:751 JLINK_WriteReg(R5, 0x00000000)  returns 0x00 (0000ms, 1173ms total)
T0C4C 001:751 JLINK_WriteReg(R6, 0x00000000)  returns 0x00 (0000ms, 1173ms total)
T0C4C 001:751 JLINK_WriteReg(R7, 0x00000000)  returns 0x00 (0000ms, 1173ms total)
T0C4C 001:751 JLINK_WriteReg(R8, 0x00000000)  returns 0x00 (0000ms, 1173ms total)
T0C4C 001:751 JLINK_WriteReg(R9, 0x20000160)  returns 0x00 (0000ms, 1173ms total)
T0C4C 001:751 JLINK_WriteReg(R10, 0x00000000)  returns 0x00 (0000ms, 1173ms total)
T0C4C 001:751 JLINK_WriteReg(R11, 0x00000000)  returns 0x00 (0000ms, 1173ms total)
T0C4C 001:751 JLINK_WriteReg(R12, 0x00000000)  returns 0x00 (0000ms, 1173ms total)
T0C4C 001:751 JLINK_WriteReg(R13, 0x20000800)  returns 0x00 (0000ms, 1173ms total)
T0C4C 001:751 JLINK_WriteReg(R14, 0x20000001)  returns 0x00 (0000ms, 1173ms total)
T0C4C 001:751 JLINK_WriteReg(R15, 0x200000F4)  returns 0x00 (0000ms, 1173ms total)
T0C4C 001:751 JLINK_WriteReg(XPSR, 0x01000000)  returns 0x00 (0000ms, 1173ms total)
T0C4C 001:751 JLINK_WriteReg(MSP, 0x20000800)  returns 0x00 (0000ms, 1173ms total)
T0C4C 001:751 JLINK_WriteReg(PSP, 0x20000800)  returns 0x00 (0000ms, 1173ms total)
T0C4C 001:751 JLINK_WriteReg(CFBP, 0x00000000)  returns 0x00 (0000ms, 1173ms total)
T0C4C 001:751 JLINK_SetBPEx(Addr = 0x20000000, Type = 0xFFFFFFF2)  returns 0x0000000A (0000ms, 1173ms total)
T0C4C 001:751 JLINK_Go() -- CPU_WriteMem(4 bytes @ 0xE0002008) -- CPU_WriteMem(4 bytes @ 0xE000200C) -- CPU_WriteMem(4 bytes @ 0xE0002010) -- CPU_WriteMem(4 bytes @ 0xE0002014) -- CPU_WriteMem(4 bytes @ 0xE0002018) -- CPU_WriteMem(4 bytes @ 0xE000201C) (0010ms, 1173ms total)
T0C4C 001:761 JLINK_IsHalted()  returns FALSE (0001ms, 1183ms total)
T0C4C 001:813 JLINK_IsHalted() -- CPU_ReadMem(2 bytes @ 0x20000000)  returns TRUE (0008ms, 1183ms total)
T0C4C 001:821 JLINK_ReadReg(R15)  returns 0x20000000 (0000ms, 1183ms total)
T0C4C 001:821 JLINK_ClrBPEx(BPHandle = 0x0000000A)  returns 0x00 (0001ms, 1183ms total)
T0C4C 001:822 JLINK_ReadReg(R0)  returns 0x00000000 (0000ms, 1184ms total)
T0C4C 001:822 JLINK_WriteMem(0x20000164, 0x0400 Bytes, ...) -- Data:  06 FC 5A 48 00 68 50 B9 59 48 00 68 C2 B2 58 48 ... -- CPU_WriteMem(1024 bytes @ 0x20000164)  returns 0x400 (0008ms, 1184ms total)
T0C4C 001:830 JLINK_WriteReg(R0, 0x08001800)  returns 0x00 (0000ms, 1192ms total)
T0C4C 001:830 JLINK_WriteReg(R1, 0x00000400)  returns 0x00 (0000ms, 1192ms total)
T0C4C 001:830 JLINK_WriteReg(R2, 0x20000164)  returns 0x00 (0000ms, 1192ms total)
T0C4C 001:830 JLINK_WriteReg(R3, 0x00000000)  returns 0x00 (0000ms, 1192ms total)
T0C4C 001:830 JLINK_WriteReg(R4, 0x00000000)  returns 0x00 (0000ms, 1192ms total)
T0C4C 001:830 JLINK_WriteReg(R5, 0x00000000)  returns 0x00 (0000ms, 1192ms total)
T0C4C 001:830 JLINK_WriteReg(R6, 0x00000000)  returns 0x00 (0000ms, 1192ms total)
T0C4C 001:830 JLINK_WriteReg(R7, 0x00000000)  returns 0x00 (0000ms, 1192ms total)
T0C4C 001:830 JLINK_WriteReg(R8, 0x00000000)  returns 0x00 (0000ms, 1192ms total)
T0C4C 001:830 JLINK_WriteReg(R9, 0x20000160)  returns 0x00 (0000ms, 1192ms total)
T0C4C 001:830 JLINK_WriteReg(R10, 0x00000000)  returns 0x00 (0000ms, 1192ms total)
T0C4C 001:830 JLINK_WriteReg(R11, 0x00000000)  returns 0x00 (0000ms, 1192ms total)
T0C4C 001:830 JLINK_WriteReg(R12, 0x00000000)  returns 0x00 (0000ms, 1192ms total)
T0C4C 001:830 JLINK_WriteReg(R13, 0x20000800)  returns 0x00 (0000ms, 1192ms total)
T0C4C 001:830 JLINK_WriteReg(R14, 0x20000001)  returns 0x00 (0000ms, 1192ms total)
T0C4C 001:830 JLINK_WriteReg(R15, 0x200000F4)  returns 0x00 (0000ms, 1192ms total)
T0C4C 001:830 JLINK_WriteReg(XPSR, 0x01000000)  returns 0x00 (0000ms, 1192ms total)
T0C4C 001:830 JLINK_WriteReg(MSP, 0x20000800)  returns 0x00 (0000ms, 1192ms total)
T0C4C 001:830 JLINK_WriteReg(PSP, 0x20000800)  returns 0x00 (0000ms, 1192ms total)
T0C4C 001:830 JLINK_WriteReg(CFBP, 0x00000000)  returns 0x00 (0000ms, 1192ms total)
T0C4C 001:830 JLINK_SetBPEx(Addr = 0x20000000, Type = 0xFFFFFFF2)  returns 0x0000000B (0000ms, 1192ms total)
T0C4C 001:830 JLINK_Go() -- CPU_WriteMem(4 bytes @ 0xE0002008) -- CPU_WriteMem(4 bytes @ 0xE000200C) -- CPU_WriteMem(4 bytes @ 0xE0002010) -- CPU_WriteMem(4 bytes @ 0xE0002014) -- CPU_WriteMem(4 bytes @ 0xE0002018) -- CPU_WriteMem(4 bytes @ 0xE000201C) (0011ms, 1192ms total)
T0C4C 001:841 JLINK_IsHalted()  returns FALSE (0001ms, 1203ms total)
T0C4C 001:892 JLINK_IsHalted() -- CPU_ReadMem(2 bytes @ 0x20000000)  returns TRUE (0007ms, 1203ms total)
T0C4C 001:899 JLINK_ReadReg(R15)  returns 0x20000000 (0000ms, 1203ms total)
T0C4C 001:899 JLINK_ClrBPEx(BPHandle = 0x0000000B)  returns 0x00 (0000ms, 1203ms total)
T0C4C 001:899 JLINK_ReadReg(R0)  returns 0x00000000 (0000ms, 1203ms total)
T0C4C 001:900 JLINK_WriteMem(0x20000164, 0x0400 Bytes, ...) -- Data:  04 F0 1C FB 00 20 04 F0 C5 FA 04 46 61 48 04 42 ... -- CPU_WriteMem(1024 bytes @ 0x20000164)  returns 0x400 (0007ms, 1203ms total)
T0C4C 001:908 JLINK_WriteReg(R0, 0x08001C00)  returns 0x00 (0000ms, 1211ms total)
T0C4C 001:908 JLINK_WriteReg(R1, 0x00000400)  returns 0x00 (0000ms, 1211ms total)
T0C4C 001:908 JLINK_WriteReg(R2, 0x20000164)  returns 0x00 (0000ms, 1211ms total)
T0C4C 001:908 JLINK_WriteReg(R3, 0x00000000)  returns 0x00 (0000ms, 1211ms total)
T0C4C 001:908 JLINK_WriteReg(R4, 0x00000000)  returns 0x00 (0000ms, 1211ms total)
T0C4C 001:908 JLINK_WriteReg(R5, 0x00000000)  returns 0x00 (0000ms, 1211ms total)
T0C4C 001:908 JLINK_WriteReg(R6, 0x00000000)  returns 0x00 (0000ms, 1211ms total)
T0C4C 001:908 JLINK_WriteReg(R7, 0x00000000)  returns 0x00 (0000ms, 1211ms total)
T0C4C 001:908 JLINK_WriteReg(R8, 0x00000000)  returns 0x00 (0000ms, 1211ms total)
T0C4C 001:908 JLINK_WriteReg(R9, 0x20000160)  returns 0x00 (0000ms, 1211ms total)
T0C4C 001:908 JLINK_WriteReg(R10, 0x00000000)  returns 0x00 (0000ms, 1211ms total)
T0C4C 001:908 JLINK_WriteReg(R11, 0x00000000)  returns 0x00 (0000ms, 1211ms total)
T0C4C 001:908 JLINK_WriteReg(R12, 0x00000000)  returns 0x00 (0000ms, 1211ms total)
T0C4C 001:908 JLINK_WriteReg(R13, 0x20000800)  returns 0x00 (0000ms, 1211ms total)
T0C4C 001:908 JLINK_WriteReg(R14, 0x20000001)  returns 0x00 (0000ms, 1211ms total)
T0C4C 001:908 JLINK_WriteReg(R15, 0x200000F4)  returns 0x00 (0000ms, 1211ms total)
T0C4C 001:908 JLINK_WriteReg(XPSR, 0x01000000)  returns 0x00 (0000ms, 1211ms total)
T0C4C 001:908 JLINK_WriteReg(MSP, 0x20000800)  returns 0x00 (0000ms, 1211ms total)
T0C4C 001:908 JLINK_WriteReg(PSP, 0x20000800)  returns 0x00 (0000ms, 1211ms total)
T0C4C 001:908 JLINK_WriteReg(CFBP, 0x00000000)  returns 0x00 (0000ms, 1211ms total)
T0C4C 001:908 JLINK_SetBPEx(Addr = 0x20000000, Type = 0xFFFFFFF2)  returns 0x0000000C (0000ms, 1211ms total)
T0C4C 001:908 JLINK_Go() -- CPU_WriteMem(4 bytes @ 0xE0002008) -- CPU_WriteMem(4 bytes @ 0xE000200C) -- CPU_WriteMem(4 bytes @ 0xE0002010) -- CPU_WriteMem(4 bytes @ 0xE0002014) -- CPU_WriteMem(4 bytes @ 0xE0002018) -- CPU_WriteMem(4 bytes @ 0xE000201C) (0010ms, 1211ms total)
T0C4C 001:918 JLINK_IsHalted()  returns FALSE (0001ms, 1221ms total)
T0C4C 001:969 JLINK_IsHalted() -- CPU_ReadMem(2 bytes @ 0x20000000)  returns TRUE (0008ms, 1221ms total)
T0C4C 001:977 JLINK_ReadReg(R15)  returns 0x20000000 (0000ms, 1221ms total)
T0C4C 001:977 JLINK_ClrBPEx(BPHandle = 0x0000000C)  returns 0x00 (0000ms, 1221ms total)
T0C4C 001:977 JLINK_ReadReg(R0)  returns 0x00000000 (0000ms, 1221ms total)
T0C4C 001:978 JLINK_WriteMem(0x20000164, 0x0400 Bytes, ...) -- Data:  8B 72 C2 F3 40 13 CB 72 C2 F3 00 13 0B 73 00 23 ... -- CPU_WriteMem(1024 bytes @ 0x20000164)  returns 0x400 (0007ms, 1221ms total)
T0C4C 001:985 JLINK_WriteReg(R0, 0x08002000)  returns 0x00 (0000ms, 1228ms total)
T0C4C 001:985 JLINK_WriteReg(R1, 0x00000400)  returns 0x00 (0000ms, 1228ms total)
T0C4C 001:985 JLINK_WriteReg(R2, 0x20000164)  returns 0x00 (0000ms, 1228ms total)
T0C4C 001:985 JLINK_WriteReg(R3, 0x00000000)  returns 0x00 (0001ms, 1228ms total)
T0C4C 001:986 JLINK_WriteReg(R4, 0x00000000)  returns 0x00 (0000ms, 1229ms total)
T0C4C 001:986 JLINK_WriteReg(R5, 0x00000000)  returns 0x00 (0000ms, 1229ms total)
T0C4C 001:986 JLINK_WriteReg(R6, 0x00000000)  returns 0x00 (0000ms, 1229ms total)
T0C4C 001:986 JLINK_WriteReg(R7, 0x00000000)  returns 0x00 (0000ms, 1229ms total)
T0C4C 001:986 JLINK_WriteReg(R8, 0x00000000)  returns 0x00 (0000ms, 1229ms total)
T0C4C 001:986 JLINK_WriteReg(R9, 0x20000160)  returns 0x00 (0000ms, 1229ms total)
T0C4C 001:986 JLINK_WriteReg(R10, 0x00000000)  returns 0x00 (0000ms, 1229ms total)
T0C4C 001:986 JLINK_WriteReg(R11, 0x00000000)  returns 0x00 (0000ms, 1229ms total)
T0C4C 001:986 JLINK_WriteReg(R12, 0x00000000)  returns 0x00 (0000ms, 1229ms total)
T0C4C 001:986 JLINK_WriteReg(R13, 0x20000800)  returns 0x00 (0000ms, 1229ms total)
T0C4C 001:986 JLINK_WriteReg(R14, 0x20000001)  returns 0x00 (0000ms, 1229ms total)
T0C4C 001:986 JLINK_WriteReg(R15, 0x200000F4)  returns 0x00 (0000ms, 1229ms total)
T0C4C 001:986 JLINK_WriteReg(XPSR, 0x01000000)  returns 0x00 (0000ms, 1229ms total)
T0C4C 001:986 JLINK_WriteReg(MSP, 0x20000800)  returns 0x00 (0000ms, 1229ms total)
T0C4C 001:986 JLINK_WriteReg(PSP, 0x20000800)  returns 0x00 (0000ms, 1229ms total)
T0C4C 001:986 JLINK_WriteReg(CFBP, 0x00000000)  returns 0x00 (0000ms, 1229ms total)
T0C4C 001:986 JLINK_SetBPEx(Addr = 0x20000000, Type = 0xFFFFFFF2)  returns 0x0000000D (0000ms, 1229ms total)
T0C4C 001:986 JLINK_Go() -- CPU_WriteMem(4 bytes @ 0xE0002008) -- CPU_WriteMem(4 bytes @ 0xE000200C) -- CPU_WriteMem(4 bytes @ 0xE0002010) -- CPU_WriteMem(4 bytes @ 0xE0002014) -- CPU_WriteMem(4 bytes @ 0xE0002018) -- CPU_WriteMem(4 bytes @ 0xE000201C) (0010ms, 1229ms total)
T0C4C 001:996 JLINK_IsHalted()  returns FALSE (0002ms, 1239ms total)
T0C4C 002:049 JLINK_IsHalted() -- CPU_ReadMem(2 bytes @ 0x20000000)  returns TRUE (0007ms, 1239ms total)
T0C4C 002:056 JLINK_ReadReg(R15)  returns 0x20000000 (0000ms, 1239ms total)
T0C4C 002:056 JLINK_ClrBPEx(BPHandle = 0x0000000D)  returns 0x00 (0000ms, 1239ms total)
T0C4C 002:056 JLINK_ReadReg(R0)  returns 0x00000000 (0000ms, 1239ms total)
T0C4C 002:057 JLINK_WriteMem(0x20000164, 0x0400 Bytes, ...) -- Data:  00 99 40 EA 11 60 68 60 01 98 00 06 01 99 01 F4 ... -- CPU_WriteMem(1024 bytes @ 0x20000164)  returns 0x400 (0007ms, 1239ms total)
T0C4C 002:064 JLINK_WriteReg(R0, 0x08002400)  returns 0x00 (0000ms, 1246ms total)
T0C4C 002:064 JLINK_WriteReg(R1, 0x00000400)  returns 0x00 (0000ms, 1246ms total)
T0C4C 002:064 JLINK_WriteReg(R2, 0x20000164)  returns 0x00 (0000ms, 1246ms total)
T0C4C 002:064 JLINK_WriteReg(R3, 0x00000000)  returns 0x00 (0000ms, 1246ms total)
T0C4C 002:064 JLINK_WriteReg(R4, 0x00000000)  returns 0x00 (0000ms, 1246ms total)
T0C4C 002:064 JLINK_WriteReg(R5, 0x00000000)  returns 0x00 (0000ms, 1246ms total)
T0C4C 002:064 JLINK_WriteReg(R6, 0x00000000)  returns 0x00 (0000ms, 1246ms total)
T0C4C 002:064 JLINK_WriteReg(R7, 0x00000000)  returns 0x00 (0001ms, 1246ms total)
T0C4C 002:065 JLINK_WriteReg(R8, 0x00000000)  returns 0x00 (0000ms, 1247ms total)
T0C4C 002:065 JLINK_WriteReg(R9, 0x20000160)  returns 0x00 (0000ms, 1247ms total)
T0C4C 002:065 JLINK_WriteReg(R10, 0x00000000)  returns 0x00 (0000ms, 1247ms total)
T0C4C 002:065 JLINK_WriteReg(R11, 0x00000000)  returns 0x00 (0000ms, 1247ms total)
T0C4C 002:065 JLINK_WriteReg(R12, 0x00000000)  returns 0x00 (0000ms, 1247ms total)
T0C4C 002:065 JLINK_WriteReg(R13, 0x20000800)  returns 0x00 (0000ms, 1247ms total)
T0C4C 002:065 JLINK_WriteReg(R14, 0x20000001)  returns 0x00 (0000ms, 1247ms total)
T0C4C 002:065 JLINK_WriteReg(R15, 0x200000F4)  returns 0x00 (0000ms, 1247ms total)
T0C4C 002:065 JLINK_WriteReg(XPSR, 0x01000000)  returns 0x00 (0000ms, 1247ms total)
T0C4C 002:065 JLINK_WriteReg(MSP, 0x20000800)  returns 0x00 (0000ms, 1247ms total)
T0C4C 002:065 JLINK_WriteReg(PSP, 0x20000800)  returns 0x00 (0000ms, 1247ms total)
T0C4C 002:065 JLINK_WriteReg(CFBP, 0x00000000)  returns 0x00 (0000ms, 1247ms total)
T0C4C 002:065 JLINK_SetBPEx(Addr = 0x20000000, Type = 0xFFFFFFF2)  returns 0x0000000E (0000ms, 1247ms total)
T0C4C 002:065 JLINK_Go() -- CPU_WriteMem(4 bytes @ 0xE0002008) -- CPU_WriteMem(4 bytes @ 0xE000200C) -- CPU_WriteMem(4 bytes @ 0xE0002010) -- CPU_WriteMem(4 bytes @ 0xE0002014) -- CPU_WriteMem(4 bytes @ 0xE0002018) -- CPU_WriteMem(4 bytes @ 0xE000201C) (0013ms, 1247ms total)
T0C4C 002:078 JLINK_IsHalted()  returns FALSE (0001ms, 1260ms total)
T0C4C 002:130 JLINK_IsHalted() -- CPU_ReadMem(2 bytes @ 0x20000000)  returns TRUE (0006ms, 1260ms total)
T0C4C 002:136 JLINK_ReadReg(R15)  returns 0x20000000 (0000ms, 1260ms total)
T0C4C 002:136 JLINK_ClrBPEx(BPHandle = 0x0000000E)  returns 0x00 (0000ms, 1260ms total)
T0C4C 002:136 JLINK_ReadReg(R0)  returns 0x00000000 (0000ms, 1260ms total)
T0C4C 002:137 JLINK_WriteMem(0x20000164, 0x0400 Bytes, ...) -- Data:  E6 D0 08 20 03 F0 10 FD 30 B1 08 20 03 F0 16 FD ... -- CPU_WriteMem(1024 bytes @ 0x20000164)  returns 0x400 (0009ms, 1260ms total)
T0C4C 002:146 JLINK_WriteReg(R0, 0x08002800)  returns 0x00 (0000ms, 1269ms total)
T0C4C 002:146 JLINK_WriteReg(R1, 0x00000400)  returns 0x00 (0000ms, 1269ms total)
T0C4C 002:146 JLINK_WriteReg(R2, 0x20000164)  returns 0x00 (0000ms, 1269ms total)
T0C4C 002:146 JLINK_WriteReg(R3, 0x00000000)  returns 0x00 (0000ms, 1269ms total)
T0C4C 002:146 JLINK_WriteReg(R4, 0x00000000)  returns 0x00 (0000ms, 1269ms total)
T0C4C 002:146 JLINK_WriteReg(R5, 0x00000000)  returns 0x00 (0000ms, 1269ms total)
T0C4C 002:146 JLINK_WriteReg(R6, 0x00000000)  returns 0x00 (0000ms, 1269ms total)
T0C4C 002:146 JLINK_WriteReg(R7, 0x00000000)  returns 0x00 (0000ms, 1269ms total)
T0C4C 002:146 JLINK_WriteReg(R8, 0x00000000)  returns 0x00 (0001ms, 1269ms total)
T0C4C 002:147 JLINK_WriteReg(R9, 0x20000160)  returns 0x00 (0000ms, 1270ms total)
T0C4C 002:147 JLINK_WriteReg(R10, 0x00000000)  returns 0x00 (0000ms, 1270ms total)
T0C4C 002:147 JLINK_WriteReg(R11, 0x00000000)  returns 0x00 (0000ms, 1270ms total)
T0C4C 002:147 JLINK_WriteReg(R12, 0x00000000)  returns 0x00 (0000ms, 1270ms total)
T0C4C 002:147 JLINK_WriteReg(R13, 0x20000800)  returns 0x00 (0000ms, 1270ms total)
T0C4C 002:147 JLINK_WriteReg(R14, 0x20000001)  returns 0x00 (0000ms, 1270ms total)
T0C4C 002:147 JLINK_WriteReg(R15, 0x200000F4)  returns 0x00 (0000ms, 1270ms total)
T0C4C 002:147 JLINK_WriteReg(XPSR, 0x01000000)  returns 0x00 (0000ms, 1270ms total)
T0C4C 002:147 JLINK_WriteReg(MSP, 0x20000800)  returns 0x00 (0000ms, 1270ms total)
T0C4C 002:147 JLINK_WriteReg(PSP, 0x20000800)  returns 0x00 (0000ms, 1270ms total)
T0C4C 002:147 JLINK_WriteReg(CFBP, 0x00000000)  returns 0x00 (0000ms, 1270ms total)
T0C4C 002:147 JLINK_SetBPEx(Addr = 0x20000000, Type = 0xFFFFFFF2)  returns 0x0000000F (0000ms, 1270ms total)
T0C4C 002:147 JLINK_Go() -- CPU_WriteMem(4 bytes @ 0xE0002008) -- CPU_WriteMem(4 bytes @ 0xE000200C) -- CPU_WriteMem(4 bytes @ 0xE0002010) -- CPU_WriteMem(4 bytes @ 0xE0002014) -- CPU_WriteMem(4 bytes @ 0xE0002018) -- CPU_WriteMem(4 bytes @ 0xE000201C) (0013ms, 1270ms total)
T0C4C 002:160 JLINK_IsHalted()  returns FALSE (0001ms, 1283ms total)
T0C4C 002:212 JLINK_IsHalted() -- CPU_ReadMem(2 bytes @ 0x20000000)  returns TRUE (0008ms, 1283ms total)
T0C4C 002:220 JLINK_ReadReg(R15)  returns 0x20000000 (0000ms, 1283ms total)
T0C4C 002:220 JLINK_ClrBPEx(BPHandle = 0x0000000F)  returns 0x00 (0000ms, 1283ms total)
T0C4C 002:220 JLINK_ReadReg(R0)  returns 0x00000000 (0000ms, 1283ms total)
T0C4C 002:221 JLINK_WriteMem(0x20000164, 0x0400 Bytes, ...) -- Data:  48 60 40 20 88 60 00 20 C8 60 4F F4 80 60 08 61 ... -- CPU_WriteMem(1024 bytes @ 0x20000164)  returns 0x400 (0007ms, 1283ms total)
T0C4C 002:228 JLINK_WriteReg(R0, 0x08002C00)  returns 0x00 (0000ms, 1290ms total)
T0C4C 002:228 JLINK_WriteReg(R1, 0x00000400)  returns 0x00 (0000ms, 1290ms total)
T0C4C 002:228 JLINK_WriteReg(R2, 0x20000164)  returns 0x00 (0000ms, 1290ms total)
T0C4C 002:228 JLINK_WriteReg(R3, 0x00000000)  returns 0x00 (0000ms, 1290ms total)
T0C4C 002:228 JLINK_WriteReg(R4, 0x00000000)  returns 0x00 (0000ms, 1290ms total)
T0C4C 002:228 JLINK_WriteReg(R5, 0x00000000)  returns 0x00 (0000ms, 1290ms total)
T0C4C 002:228 JLINK_WriteReg(R6, 0x00000000)  returns 0x00 (0000ms, 1290ms total)
T0C4C 002:228 JLINK_WriteReg(R7, 0x00000000)  returns 0x00 (0000ms, 1290ms total)
T0C4C 002:228 JLINK_WriteReg(R8, 0x00000000)  returns 0x00 (0000ms, 1290ms total)
T0C4C 002:228 JLINK_WriteReg(R9, 0x20000160)  returns 0x00 (0000ms, 1290ms total)
T0C4C 002:228 JLINK_WriteReg(R10, 0x00000000)  returns 0x00 (0001ms, 1290ms total)
T0C4C 002:229 JLINK_WriteReg(R11, 0x00000000)  returns 0x00 (0000ms, 1291ms total)
T0C4C 002:229 JLINK_WriteReg(R12, 0x00000000)  returns 0x00 (0000ms, 1291ms total)
T0C4C 002:229 JLINK_WriteReg(R13, 0x20000800)  returns 0x00 (0000ms, 1291ms total)
T0C4C 002:229 JLINK_WriteReg(R14, 0x20000001)  returns 0x00 (0000ms, 1291ms total)
T0C4C 002:229 JLINK_WriteReg(R15, 0x200000F4)  returns 0x00 (0000ms, 1291ms total)
T0C4C 002:229 JLINK_WriteReg(XPSR, 0x01000000)  returns 0x00 (0000ms, 1291ms total)
T0C4C 002:229 JLINK_WriteReg(MSP, 0x20000800)  returns 0x00 (0000ms, 1291ms total)
T0C4C 002:229 JLINK_WriteReg(PSP, 0x20000800)  returns 0x00 (0000ms, 1291ms total)
T0C4C 002:229 JLINK_WriteReg(CFBP, 0x00000000)  returns 0x00 (0000ms, 1291ms total)
T0C4C 002:229 JLINK_SetBPEx(Addr = 0x20000000, Type = 0xFFFFFFF2)  returns 0x00000010 (0000ms, 1291ms total)
T0C4C 002:229 JLINK_Go() -- CPU_WriteMem(4 bytes @ 0xE0002008) -- CPU_WriteMem(4 bytes @ 0xE000200C) -- CPU_WriteMem(4 bytes @ 0xE0002010) -- CPU_WriteMem(4 bytes @ 0xE0002014) -- CPU_WriteMem(4 bytes @ 0xE0002018) -- CPU_WriteMem(4 bytes @ 0xE000201C) (0010ms, 1291ms total)
T0C4C 002:239 JLINK_IsHalted()  returns FALSE (0001ms, 1301ms total)
T0C4C 002:291 JLINK_IsHalted() -- CPU_ReadMem(2 bytes @ 0x20000000)  returns TRUE (0008ms, 1301ms total)
T0C4C 002:299 JLINK_ReadReg(R15)  returns 0x20000000 (0000ms, 1301ms total)
T0C4C 002:299 JLINK_ClrBPEx(BPHandle = 0x00000010)  returns 0x00 (0000ms, 1301ms total)
T0C4C 002:299 JLINK_ReadReg(R0)  returns 0x00000000 (0000ms, 1301ms total)
T0C4C 002:300 JLINK_WriteMem(0x20000164, 0x0400 Bytes, ...) -- Data:  09 F1 20 09 20 36 9F 48 40 6B 40 F2 1A 61 08 42 ... -- CPU_WriteMem(1024 bytes @ 0x20000164)  returns 0x400 (0006ms, 1301ms total)
T0C4C 002:306 JLINK_WriteReg(R0, 0x08003000)  returns 0x00 (0000ms, 1307ms total)
T0C4C 002:306 JLINK_WriteReg(R1, 0x00000400)  returns 0x00 (0000ms, 1307ms total)
T0C4C 002:306 JLINK_WriteReg(R2, 0x20000164)  returns 0x00 (0000ms, 1307ms total)
T0C4C 002:306 JLINK_WriteReg(R3, 0x00000000)  returns 0x00 (0000ms, 1307ms total)
T0C4C 002:306 JLINK_WriteReg(R4, 0x00000000)  returns 0x00 (0000ms, 1307ms total)
T0C4C 002:306 JLINK_WriteReg(R5, 0x00000000)  returns 0x00 (0000ms, 1307ms total)
T0C4C 002:306 JLINK_WriteReg(R6, 0x00000000)  returns 0x00 (0000ms, 1307ms total)
T0C4C 002:306 JLINK_WriteReg(R7, 0x00000000)  returns 0x00 (0000ms, 1307ms total)
T0C4C 002:306 JLINK_WriteReg(R8, 0x00000000)  returns 0x00 (0000ms, 1307ms total)
T0C4C 002:306 JLINK_WriteReg(R9, 0x20000160)  returns 0x00 (0000ms, 1307ms total)
T0C4C 002:306 JLINK_WriteReg(R10, 0x00000000)  returns 0x00 (0000ms, 1307ms total)
T0C4C 002:306 JLINK_WriteReg(R11, 0x00000000)  returns 0x00 (0000ms, 1307ms total)
T0C4C 002:306 JLINK_WriteReg(R12, 0x00000000)  returns 0x00 (0000ms, 1307ms total)
T0C4C 002:306 JLINK_WriteReg(R13, 0x20000800)  returns 0x00 (0000ms, 1307ms total)
T0C4C 002:306 JLINK_WriteReg(R14, 0x20000001)  returns 0x00 (0001ms, 1307ms total)
T0C4C 002:307 JLINK_WriteReg(R15, 0x200000F4)  returns 0x00 (0000ms, 1308ms total)
T0C4C 002:307 JLINK_WriteReg(XPSR, 0x01000000)  returns 0x00 (0000ms, 1308ms total)
T0C4C 002:307 JLINK_WriteReg(MSP, 0x20000800)  returns 0x00 (0000ms, 1308ms total)
T0C4C 002:307 JLINK_WriteReg(PSP, 0x20000800)  returns 0x00 (0000ms, 1308ms total)
T0C4C 002:307 JLINK_WriteReg(CFBP, 0x00000000)  returns 0x00 (0000ms, 1308ms total)
T0C4C 002:307 JLINK_SetBPEx(Addr = 0x20000000, Type = 0xFFFFFFF2)  returns 0x00000011 (0000ms, 1308ms total)
T0C4C 002:307 JLINK_Go() -- CPU_WriteMem(4 bytes @ 0xE0002008) -- CPU_WriteMem(4 bytes @ 0xE000200C) -- CPU_WriteMem(4 bytes @ 0xE0002010) -- CPU_WriteMem(4 bytes @ 0xE0002014) -- CPU_WriteMem(4 bytes @ 0xE0002018) -- CPU_WriteMem(4 bytes @ 0xE000201C) (0009ms, 1308ms total)
T0C4C 002:316 JLINK_IsHalted()  returns FALSE (0001ms, 1317ms total)
T0C4C 002:368 JLINK_IsHalted() -- CPU_ReadMem(2 bytes @ 0x20000000)  returns TRUE (0008ms, 1317ms total)
T0C4C 002:376 JLINK_ReadReg(R15)  returns 0x20000000 (0000ms, 1317ms total)
T0C4C 002:376 JLINK_ClrBPEx(BPHandle = 0x00000011)  returns 0x00 (0000ms, 1317ms total)
T0C4C 002:376 JLINK_ReadReg(R0)  returns 0x00000000 (0000ms, 1317ms total)
T0C4C 002:376 JLINK_WriteMem(0x20000164, 0x0400 Bytes, ...) -- Data:  30 B1 4F F4 00 70 02 F0 19 FF 07 25 28 46 94 E6 ... -- CPU_WriteMem(1024 bytes @ 0x20000164)  returns 0x400 (0008ms, 1317ms total)
T0C4C 002:384 JLINK_WriteReg(R0, 0x08003400)  returns 0x00 (0000ms, 1325ms total)
